
**** 11/19/23 22:43:33 ******* PSpice Lite (March 2016) ******* ID# 10813 ****

 ** Profile: "SCHEMATIC1-psf"  [ C:\Users\arosi\Desktop\p1\p1_pai-PSpiceFiles\SCHEMATIC1\psf.sim ] 


 ****     CIRCUIT DESCRIPTION


******************************************************************************




** Creating circuit file "psf.cir" 
** WARNING: THIS AUTOMATICALLY GENERATED FILE MAY BE OVERWRITTEN BY SUBSEQUENT SIMULATIONS

*Libraries: 
* Profile Libraries :
* Local Libraries :
* From [PSPICE NETLIST] section of C:\Users\arosi\AppData\Roaming\SPB_16.6\cdssetup\OrCAD_PSpice\17.2.0\PSpice.ini file:
.lib "nomd.lib" 

*Analysis directives: 
.AC DEC 100 1 100meg
.OPTIONS ADVCONV
.PROBE64 V(alias(*)) I(alias(*)) W(alias(*)) D(alias(*)) NOISE(alias(*)) 
.INC "..\SCHEMATIC1.net" 



**** INCLUDING SCHEMATIC1.net ****
* source P1_PAI
C_C2         N06552 N06634  15u  TC=0,0 
R_R3         0 N06800  1k TC=0,0 
R_R7         N06634 N06800  100k TC=0,0 
R_R1         0 N06894  55k TC=0,0 
R_R13         N06534 VCC  100k TC=0,0 
Q_Q2         N06552 N06664 N06720 BC846B 
C_C3         N06634 N06648  10u  TC=0,0 
Q_Q1         N06664 N06758 N06800 BC846B 
R_R12         0 N06894  4.3k TC=0,0 
R_R11         N06884 N06894  100k TC=0,0 
C_C4         0 N06880  20u  TC=0,0 
R_R9         N06880 N06720  1 TC=0,0 
C_C1         N06894 N06758  10u  TC=0,0 
X_R14         0 N06648 N06648 POT PARAMS: SET=0.5 VALUE=50k
R_R2         N06664 N06534  100k TC=0,0 
V_V1         N06884 0  AC 0.1
+SIN 0 0.1v 1k 0 0 0
R_R4         N06552 VCC  15k TC=0,0 
R_R6         N06880 N06758  360k TC=0,0 
V_V2         VCC 0 18v
R_R5         0 N06880  1k TC=0,0 

**** RESUMING psf.cir ****
.END

**** 11/19/23 22:43:33 ******* PSpice Lite (March 2016) ******* ID# 10813 ****

 ** Profile: "SCHEMATIC1-psf"  [ C:\Users\arosi\Desktop\p1\p1_pai-PSpiceFiles\SCHEMATIC1\psf.sim ] 


 ****     BJT MODEL PARAMETERS


******************************************************************************




               BC846B          
               NPN             
       LEVEL    1            
          IS    7.049000E-15 
          BF  279.1          
          NF    1            
         VAF   62.37         
         IKF     .2201       
         ISE   59.160000E-15 
          NE    1.81         
          BR    3.816        
          NR    1            
         IKR    1.859        
         ISC   16.170000E-15 
          NC    2.394        
          NK     .6305       
         ISS    0            
          RE    0            
          RC    1.508        
         CJE    9.485000E-12 
         VJE     .5          
         MJE     .3333       
         CJC    7.287000E-12 
         VJC     .5          
         MJC     .3333       
        XCJC    1            
         CJS    0            
         VJS     .75         
          TF  664.000000E-12 
         XTF  147            
         VTF   10            
         ITF    4.664        
          TR   10.000000E-09 
         XTB    1.5          
          KF    0            
          AF    1            
          CN    2.42         
           D     .87         


**** 11/19/23 22:43:33 ******* PSpice Lite (March 2016) ******* ID# 10813 ****

 ** Profile: "SCHEMATIC1-psf"  [ C:\Users\arosi\Desktop\p1\p1_pai-PSpiceFiles\SCHEMATIC1\psf.sim ] 


 ****     SMALL SIGNAL BIAS SOLUTION       TEMPERATURE =   27.000 DEG C


******************************************************************************



 NODE   VOLTAGE     NODE   VOLTAGE     NODE   VOLTAGE     NODE   VOLTAGE


(  VCC)   18.0000  (N06534)    9.7228 (N06552)    6.2071 (N06634)     .0804     

(N06648)    0.0000 (N06664)    1.4455 (N06720)     .7894 (N06758)     .6789     

(N06800)     .0804 (N06880)     .7886 (N06884)    0.0000 (N06894)    0.0000 




    VOLTAGE SOURCE CURRENTS
    NAME         CURRENT

    V_V1         0.000E+00
    V_V2        -8.690E-04

    TOTAL POWER DISSIPATION   1.56E-02  WATTS



          JOB CONCLUDED

**** 11/19/23 22:43:33 ******* PSpice Lite (March 2016) ******* ID# 10813 ****

 ** Profile: "SCHEMATIC1-psf"  [ C:\Users\arosi\Desktop\p1\p1_pai-PSpiceFiles\SCHEMATIC1\psf.sim ] 


 ****     JOB STATISTICS SUMMARY


******************************************************************************



  Total job time (using Solver 1)   =         .05
